Circuit: * C:\Users\Arshwin Kumar\Documents\LTspiceXVII\Draft1.asc

Ignoring BSIM parameter XL
Ignoring BSIM parameter XW
Ignoring BSIM parameter XL
Ignoring BSIM parameter XW
WARNING: Node N002 is floating.

Warning: Pd = 0 is less than W.
Warning: Ps = 0 is less than W.
Warning: Pd = 0 is less than W.
Warning: Ps = 0 is less than W.
Warning: Pd = 0 is less than W.
Warning: Ps = 0 is less than W.
Direct Newton iteration for .op point succeeded.
Semiconductor Device Operating Points:
                        --- BSIM3 MOSFETS ---
Name:        m10         m9          m8          m7          m6
Model:      cmosn       cmosn       cmosn       cmosn       cmosp
Id:        3.26e-03    3.26e-03    3.26e-03    3.26e-03    3.26e-03
Vgs:       5.75e-01    5.75e-01    6.76e-01    6.76e-01   -9.75e-01
Vds:       5.24e-01    5.24e-01    5.09e-02    5.09e-02    1.70e-01
Vbs:       0.00e+00    0.00e+00    0.00e+00    0.00e+00    1.70e-01
Vth:       4.08e-01    4.08e-01    4.10e-01    4.10e-01   -4.20e-01
Vdsat:     1.32e-01    1.32e-01    1.97e-01    1.97e-01   -5.46e-01
Gm:        3.79e-02    3.79e-02    1.52e-02    1.52e-02    4.58e-03
Gds:       2.96e-04    2.96e-04    5.45e-02    5.45e-02    1.56e-02
Gmb        1.07e-02    1.07e-02    4.44e-03    4.44e-03    1.95e-03
Cbd:       0.00e+00    0.00e+00    0.00e+00    0.00e+00    0.00e+00
Cbs:       0.00e+00    0.00e+00    0.00e+00    0.00e+00    0.00e+00
Cgsov:     8.23e-13    8.23e-13    8.23e-13    8.23e-13    3.18e-13
Cgdov:     8.23e-13    8.23e-13    8.23e-13    8.23e-13    3.18e-13
Cgbov:     9.66e-19    9.66e-19    9.66e-19    9.66e-19    9.41e-19
dQgdVgb:   8.39e-12    8.39e-12    9.65e-12    9.65e-12    4.52e-12
dQgdVdb:  -8.05e-13   -8.05e-13   -3.51e-12   -3.51e-12   -1.71e-12
dQgdVsb:  -7.15e-12   -7.15e-12   -6.06e-12   -6.06e-12   -2.91e-12
dQddVgb:  -3.52e-12   -3.52e-12   -4.72e-12   -4.72e-12   -2.21e-12
dQddVdb:   8.14e-13    8.14e-13    3.43e-12    3.43e-12    1.62e-12
dQddVsb:   3.56e-12    3.56e-12    2.50e-12    2.50e-12    1.16e-12
dQbdVgb:  -1.36e-12   -1.36e-12   -2.07e-13   -2.07e-13   -9.19e-14
dQbdVdb:  -4.52e-16   -4.52e-16   -2.53e-12   -2.53e-12   -1.23e-12
dQbdVsb:  -7.88e-13   -7.88e-13    2.44e-13    2.44e-13    2.64e-13

Name:        m5          m4          m3          m2          m1
Model:      cmosp       cmosp       cmosp       cmosp       cmosp
Id:        3.26e-03    3.26e-03    3.26e-03    4.00e-04    6.51e-03
Vgs:      -9.75e-01    5.55e-02    5.55e-02   -1.79e+00   -1.71e+00
Vds:       1.70e-01    9.64e-01    9.64e-01    5.39e-03    9.14e-02
Vbs:       1.70e-01    9.64e-01    9.64e-01    5.39e-03    9.14e-02
Vth:      -4.20e-01   -4.18e-01   -4.18e-01   -4.21e-01   -4.20e-01
Vdsat:    -5.46e-01   -3.73e-01   -3.73e-01   -1.08e+00   -1.08e+00
Gm:        4.58e-03    1.20e-02    1.20e-02    2.03e-04    3.52e-03
Gds:       1.56e-02    1.41e-04    1.41e-04    7.41e-02    6.81e-02
Gmb        1.95e-03    3.94e-03    3.94e-03    1.27e-04    2.11e-03
Cbd:       0.00e+00    0.00e+00    0.00e+00    0.00e+00    0.00e+00
Cbs:       0.00e+00    0.00e+00    0.00e+00    0.00e+00    0.00e+00
Cgsov:     3.18e-13    3.18e-13    3.18e-13    6.35e-13    6.35e-13
Cgdov:     3.18e-13    3.18e-13    3.18e-13    6.35e-13    6.35e-13
Cgbov:     9.41e-19    9.41e-19    9.41e-19    9.41e-19    9.41e-19
dQgdVgb:   4.52e-12    3.91e-12    3.91e-12    9.21e-12    9.20e-12
dQgdVdb:  -1.71e-12   -3.12e-13   -3.12e-13   -4.46e-12   -4.28e-12
dQgdVsb:  -2.91e-12   -3.54e-12   -3.54e-12   -4.98e-12   -5.15e-12
dQddVgb:  -2.21e-12   -1.64e-12   -1.64e-12   -4.60e-12   -4.58e-12
dQddVdb:   1.62e-12    3.15e-13    3.15e-13    4.24e-12    4.06e-12
dQddVsb:   1.16e-12    1.75e-12    1.75e-12    1.63e-12    1.74e-12
dQbdVgb:  -9.19e-14   -6.33e-13   -6.33e-13   -1.57e-14   -2.77e-14
dQbdVdb:  -1.23e-12   -4.32e-16   -4.32e-16   -3.38e-12   -3.21e-12
dQbdVsb:   2.64e-13   -2.75e-13   -2.75e-13    1.08e-12    1.03e-12



Date: Wed Nov 16 03:07:59 2022
Total elapsed time: 0.079 seconds.

tnom = 27
temp = 27
method = trap
totiter = 10
traniter = 0
tranpoints = 0
accept = 0
rejected = 0
matrix size = 19
fillins = 6
solver = Normal
Matrix Compiler1: 1.13 KB object code size
Matrix Compiler2: 1.72 KB object code size
